Time [s], Analyzer Name, Decoded Protocol Result
2.373545062500000,SPI,MOSI: 0x004
2.437517750000000,SPI,MOSI: 0x040
2.462492093750000,SPI,MOSI: 0x118
2.462570750000000,SPI,MOSI: 0x100
2.465757687500000,SPI,MOSI: 0x020
2.465853406250000,SPI,MOSI: 0x100
2.465948718750000,SPI,MOSI: 0x100
2.466043875000000,SPI,MOSI: 0x100
2.466139187500000,SPI,MOSI: 0x100
2.466234312500000,SPI,MOSI: 0x100
2.466329531250000,SPI,MOSI: 0x100
2.466424843750000,SPI,MOSI: 0x100
2.466520031250000,SPI,MOSI: 0x100
2.466615375000000,SPI,MOSI: 0x1C0
2.466711218750000,SPI,MOSI: 0x100
2.466806468750000,SPI,MOSI: 0x100
2.466901750000000,SPI,MOSI: 0x100
2.466997093750000,SPI,MOSI: 0x100
2.467092375000000,SPI,MOSI: 0x100
2.467187687500000,SPI,MOSI: 0x100
2.467283062500000,SPI,MOSI: 0x100
2.467378625000000,SPI,MOSI: 0x100
2.467473718750000,SPI,MOSI: 0x100
2.467569031250000,SPI,MOSI: 0x100
2.467664187500000,SPI,MOSI: 0x100
2.467759562500000,SPI,MOSI: 0x100
2.467854843750000,SPI,MOSI: 0x100
2.467950031250000,SPI,MOSI: 0x100
2.468045312500000,SPI,MOSI: 0x100
2.468140468750000,SPI,MOSI: 0x100
2.468235812500000,SPI,MOSI: 0x100
2.468331031250000,SPI,MOSI: 0x100
2.468426343750000,SPI,MOSI: 0x100
2.468521625000000,SPI,MOSI: 0x100
2.468617062500000,SPI,MOSI: 0x100
2.468712375000000,SPI,MOSI: 0x100
2.468807687500000,SPI,MOSI: 0x100
2.468906562500000,SPI,MOSI: 0x022
2.469002750000000,SPI,MOSI: 0x1A9
2.469099593750000,SPI,MOSI: 0x1A9
2.469196406250000,SPI,MOSI: 0x1A9
2.469293343750000,SPI,MOSI: 0x1A9
2.469389906250000,SPI,MOSI: 0x1A9
2.469486718750000,SPI,MOSI: 0x1A9
2.469583468750000,SPI,MOSI: 0x1A9
2.469680281250000,SPI,MOSI: 0x1A9
2.469777000000000,SPI,MOSI: 0x1A9
2.469873875000000,SPI,MOSI: 0x1A9
2.469970468750000,SPI,MOSI: 0x1A9
2.470067218750000,SPI,MOSI: 0x1A9
2.470164000000000,SPI,MOSI: 0x1A9
2.470260718750000,SPI,MOSI: 0x1A9
2.470357406250000,SPI,MOSI: 0x1A9
2.470454125000000,SPI,MOSI: 0x1A9
2.470550906250000,SPI,MOSI: 0x1A9
2.470647593750000,SPI,MOSI: 0x1A9
2.470744437500000,SPI,MOSI: 0x1A9
2.470841187500000,SPI,MOSI: 0x1A9
2.470937718750000,SPI,MOSI: 0x1A9
2.471034468750000,SPI,MOSI: 0x1A9
2.471131187500000,SPI,MOSI: 0x1A9
2.471227906250000,SPI,MOSI: 0x1A9
2.471324687500000,SPI,MOSI: 0x1A9
2.471421343750000,SPI,MOSI: 0x1A9
2.471518156250000,SPI,MOSI: 0x1A9
2.471614968750000,SPI,MOSI: 0x1A1
2.471711406250000,SPI,MOSI: 0x1A9
2.471808218750000,SPI,MOSI: 0x1A9
2.471905000000000,SPI,MOSI: 0x129
2.472001437500000,SPI,MOSI: 0x1A1
2.472097937500000,SPI,MOSI: 0x1A8
2.472194343750000,SPI,MOSI: 0x1A9
2.472291250000000,SPI,MOSI: 0x121
2.472387281250000,SPI,MOSI: 0x181
2.472483375000000,SPI,MOSI: 0x1A8
2.472579781250000,SPI,MOSI: 0x1A9
2.472676625000000,SPI,MOSI: 0x105
2.472772781250000,SPI,MOSI: 0x181
2.472868843750000,SPI,MOSI: 0x1A8
2.472965312500000,SPI,MOSI: 0x1A1
2.473061718750000,SPI,MOSI: 0x105
2.473157781250000,SPI,MOSI: 0x105
2.473253968750000,SPI,MOSI: 0x1A8
2.473350375000000,SPI,MOSI: 0x180
2.473446062500000,SPI,MOSI: 0x105
2.473542187500000,SPI,MOSI: 0x115
2.473638593750000,SPI,MOSI: 0x188
2.473734656250000,SPI,MOSI: 0x100
2.473830093750000,SPI,MOSI: 0x115
2.473926562500000,SPI,MOSI: 0x154
2.474023000000000,SPI,MOSI: 0x180
2.474118687500000,SPI,MOSI: 0x104
2.474214375000000,SPI,MOSI: 0x104
2.474310031250000,SPI,MOSI: 0x154
2.474406531250000,SPI,MOSI: 0x182
2.474502593750000,SPI,MOSI: 0x154
2.474599000000000,SPI,MOSI: 0x114
2.474695125000000,SPI,MOSI: 0x154
2.474791562500000,SPI,MOSI: 0x142
2.474887531250000,SPI,MOSI: 0x156
2.474984343750000,SPI,MOSI: 0x114
2.475080343750000,SPI,MOSI: 0x154
2.475176687500000,SPI,MOSI: 0x146
2.475273062500000,SPI,MOSI: 0x156
2.475369781250000,SPI,MOSI: 0x156
2.475466562500000,SPI,MOSI: 0x154
2.475562937500000,SPI,MOSI: 0x146
2.475659281250000,SPI,MOSI: 0x156
2.475756093750000,SPI,MOSI: 0x156
2.475852937500000,SPI,MOSI: 0x154
2.475949468750000,SPI,MOSI: 0x156
2.476046281250000,SPI,MOSI: 0x156
2.476143062500000,SPI,MOSI: 0x156
2.476239875000000,SPI,MOSI: 0x156
2.476336781250000,SPI,MOSI: 0x156
2.476433562500000,SPI,MOSI: 0x156
2.476530437500000,SPI,MOSI: 0x156
2.476627250000000,SPI,MOSI: 0x156
2.476724093750000,SPI,MOSI: 0x156
2.476820875000000,SPI,MOSI: 0x156
2.476917687500000,SPI,MOSI: 0x152
2.477014218750000,SPI,MOSI: 0x152
2.477110625000000,SPI,MOSI: 0x156
2.477207500000000,SPI,MOSI: 0x156
2.477304343750000,SPI,MOSI: 0x152
2.477400781250000,SPI,MOSI: 0x152
2.477497218750000,SPI,MOSI: 0x156
2.477594093750000,SPI,MOSI: 0x156
2.477690937500000,SPI,MOSI: 0x152
2.477787343750000,SPI,MOSI: 0x152
2.477883781250000,SPI,MOSI: 0x156
2.477980687500000,SPI,MOSI: 0x152
2.478077031250000,SPI,MOSI: 0x152
2.478173531250000,SPI,MOSI: 0x152
2.478269781250000,SPI,MOSI: 0x156
2.478366687500000,SPI,MOSI: 0x152
2.478463062500000,SPI,MOSI: 0x152
2.478559562500000,SPI,MOSI: 0x152
2.478655968750000,SPI,MOSI: 0x152
2.478752468750000,SPI,MOSI: 0x152
2.478848937500000,SPI,MOSI: 0x152
2.478945375000000,SPI,MOSI: 0x142
2.479041593750000,SPI,MOSI: 0x152
2.479137781250000,SPI,MOSI: 0x152
2.479234250000000,SPI,MOSI: 0x152
2.479330625000000,SPI,MOSI: 0x142
2.479426687500000,SPI,MOSI: 0x15A
2.479523375000000,SPI,MOSI: 0x14A
2.479619781250000,SPI,MOSI: 0x14A
2.479716250000000,SPI,MOSI: 0x14A
2.479812531250000,SPI,MOSI: 0x16A
2.479909312500000,SPI,MOSI: 0x16A
2.480006000000000,SPI,MOSI: 0x16A
2.480102812500000,SPI,MOSI: 0x16A
2.480199343750000,SPI,MOSI: 0x16A
2.480296031250000,SPI,MOSI: 0x16A
2.480392843750000,SPI,MOSI: 0x16A
2.480489562500000,SPI,MOSI: 0x16A
2.480586343750000,SPI,MOSI: 0x100
2.480681656250000,SPI,MOSI: 0x100
2.480776968750000,SPI,MOSI: 0x100
2.480872187500000,SPI,MOSI: 0x100
2.480967531250000,SPI,MOSI: 0x1FF
2.481065843750000,SPI,MOSI: 0x1FF
2.481164031250000,SPI,MOSI: 0x1FF
2.481262343750000,SPI,MOSI: 0x1FF
2.481360625000000,SPI,MOSI: 0x100
2.481455812500000,SPI,MOSI: 0x100
2.481551156250000,SPI,MOSI: 0x100
2.481646343750000,SPI,MOSI: 0x100
2.481741562500000,SPI,MOSI: 0x100
2.481836781250000,SPI,MOSI: 0x100
2.481932000000000,SPI,MOSI: 0x100
2.482027281250000,SPI,MOSI: 0x100
2.482122500000000,SPI,MOSI: 0x100
2.482217812500000,SPI,MOSI: 0x100
2.482313093750000,SPI,MOSI: 0x100
2.482408281250000,SPI,MOSI: 0x100
2.482503593750000,SPI,MOSI: 0x100
2.482598875000000,SPI,MOSI: 0x100
2.482694062500000,SPI,MOSI: 0x100
2.482789375000000,SPI,MOSI: 0x100
2.482884562500000,SPI,MOSI: 0x100
2.482979812500000,SPI,MOSI: 0x100
2.483075125000000,SPI,MOSI: 0x100
2.483170406250000,SPI,MOSI: 0x100
2.483265625000000,SPI,MOSI: 0x100
2.483360968750000,SPI,MOSI: 0x100
2.483456093750000,SPI,MOSI: 0x100
2.483551343750000,SPI,MOSI: 0x100
2.483646625000000,SPI,MOSI: 0x100
2.483741937500000,SPI,MOSI: 0x100
2.483837218750000,SPI,MOSI: 0x100
2.483932531250000,SPI,MOSI: 0x100
2.484027906250000,SPI,MOSI: 0x100
2.484123187500000,SPI,MOSI: 0x100
2.484218562500000,SPI,MOSI: 0x100
2.484313843750000,SPI,MOSI: 0x100
2.484409218750000,SPI,MOSI: 0x100
2.484504531250000,SPI,MOSI: 0x100
2.484599875000000,SPI,MOSI: 0x100
2.484695250000000,SPI,MOSI: 0x100
2.484790562500000,SPI,MOSI: 0x100
2.484885937500000,SPI,MOSI: 0x100
2.484981187500000,SPI,MOSI: 0x100
2.485076593750000,SPI,MOSI: 0x100
2.485171625000000,SPI,MOSI: 0x100
2.485266937500000,SPI,MOSI: 0x100
2.485362250000000,SPI,MOSI: 0x100
2.485457375000000,SPI,MOSI: 0x100
2.485552687500000,SPI,MOSI: 0x100
2.485647812500000,SPI,MOSI: 0x100
2.485743031250000,SPI,MOSI: 0x100
2.485838062500000,SPI,MOSI: 0x100
2.485933281250000,SPI,MOSI: 0x100
2.486028562500000,SPI,MOSI: 0x100
2.486123781250000,SPI,MOSI: 0x100
2.486219062500000,SPI,MOSI: 0x100
2.486314281250000,SPI,MOSI: 0x100
2.486409593750000,SPI,MOSI: 0x100
2.486504875000000,SPI,MOSI: 0x100
2.486600031250000,SPI,MOSI: 0x100
2.486695343750000,SPI,MOSI: 0x100
2.486790531250000,SPI,MOSI: 0x100
2.486885843750000,SPI,MOSI: 0x100
2.486981000000000,SPI,MOSI: 0x100
2.487076375000000,SPI,MOSI: 0x100
2.487171562500000,SPI,MOSI: 0x100
2.487266781250000,SPI,MOSI: 0x100
2.487362031250000,SPI,MOSI: 0x100
2.487457250000000,SPI,MOSI: 0x100
2.487552562500000,SPI,MOSI: 0x100
2.487647718750000,SPI,MOSI: 0x100
2.487743093750000,SPI,MOSI: 0x100
2.487838250000000,SPI,MOSI: 0x100
2.487933437500000,SPI,MOSI: 0x100
2.488028718750000,SPI,MOSI: 0x100
2.488123906250000,SPI,MOSI: 0x100
2.488219187500000,SPI,MOSI: 0x100
2.488314406250000,SPI,MOSI: 0x100
2.488409718750000,SPI,MOSI: 0x100
2.488504937500000,SPI,MOSI: 0x100
2.488600312500000,SPI,MOSI: 0x100
2.488695468750000,SPI,MOSI: 0x100
2.488790781250000,SPI,MOSI: 0x100
2.488886062500000,SPI,MOSI: 0x100
2.488981281250000,SPI,MOSI: 0x100
2.489076468750000,SPI,MOSI: 0x100
2.489171843750000,SPI,MOSI: 0x100
2.489267187500000,SPI,MOSI: 0x100
2.489362500000000,SPI,MOSI: 0x100
2.489457781250000,SPI,MOSI: 0x100
2.489553093750000,SPI,MOSI: 0x100
2.489648468750000,SPI,MOSI: 0x100
2.489743781250000,SPI,MOSI: 0x100
2.489839093750000,SPI,MOSI: 0x100
2.489934437500000,SPI,MOSI: 0x100
2.490029750000000,SPI,MOSI: 0x100
2.490125125000000,SPI,MOSI: 0x100
2.490220406250000,SPI,MOSI: 0x100
2.490315812500000,SPI,MOSI: 0x100
2.490411125000000,SPI,MOSI: 0x100
2.490506531250000,SPI,MOSI: 0x100
2.490601843750000,SPI,MOSI: 0x100
2.490697125000000,SPI,MOSI: 0x100
2.490792531250000,SPI,MOSI: 0x100
2.490887843750000,SPI,MOSI: 0x100
2.490983125000000,SPI,MOSI: 0x100
2.491078562500000,SPI,MOSI: 0x100
2.491173875000000,SPI,MOSI: 0x100
2.491269156250000,SPI,MOSI: 0x100
2.491364562500000,SPI,MOSI: 0x100
2.491459906250000,SPI,MOSI: 0x100
2.491555218750000,SPI,MOSI: 0x100
2.491650531250000,SPI,MOSI: 0x100
2.491745968750000,SPI,MOSI: 0x100
2.491841250000000,SPI,MOSI: 0x100
2.491936593750000,SPI,MOSI: 0x100
2.492031906250000,SPI,MOSI: 0x100
2.492127218750000,SPI,MOSI: 0x100
2.492222562500000,SPI,MOSI: 0x100
2.492317812500000,SPI,MOSI: 0x100
2.492413031250000,SPI,MOSI: 0x100
2.492508312500000,SPI,MOSI: 0x100
2.492603593750000,SPI,MOSI: 0x100
2.492698906250000,SPI,MOSI: 0x100
2.492793937500000,SPI,MOSI: 0x100
2.492889125000000,SPI,MOSI: 0x100
2.492984437500000,SPI,MOSI: 0x100
2.493079718750000,SPI,MOSI: 0x100
2.493174937500000,SPI,MOSI: 0x100
2.493270218750000,SPI,MOSI: 0x100
2.493365468750000,SPI,MOSI: 0x100
2.493460750000000,SPI,MOSI: 0x100
2.493555968750000,SPI,MOSI: 0x100
2.493651218750000,SPI,MOSI: 0x100
2.493746437500000,SPI,MOSI: 0x100
2.493841718750000,SPI,MOSI: 0x100
2.493936875000000,SPI,MOSI: 0x100
2.494032156250000,SPI,MOSI: 0x100
2.494127500000000,SPI,MOSI: 0x100
2.494222500000000,SPI,MOSI: 0x100
2.494317718750000,SPI,MOSI: 0x100
2.494413062500000,SPI,MOSI: 0x100
2.494508281250000,SPI,MOSI: 0x100
2.494603562500000,SPI,MOSI: 0x100
2.494698843750000,SPI,MOSI: 0x100
2.494794156250000,SPI,MOSI: 0x100
2.494889593750000,SPI,MOSI: 0x100
2.494984906250000,SPI,MOSI: 0x100
2.495080187500000,SPI,MOSI: 0x100
2.495175500000000,SPI,MOSI: 0x100
2.495270843750000,SPI,MOSI: 0x100
2.495366187500000,SPI,MOSI: 0x100
2.495461500000000,SPI,MOSI: 0x100
2.495556875000000,SPI,MOSI: 0x100
2.495652093750000,SPI,MOSI: 0x100
2.495747343750000,SPI,MOSI: 0x100
2.495842531250000,SPI,MOSI: 0x100
2.495937937500000,SPI,MOSI: 0x100
2.496033093750000,SPI,MOSI: 0x100
2.496128406250000,SPI,MOSI: 0x100
2.496223750000000,SPI,MOSI: 0x100
2.496319093750000,SPI,MOSI: 0x100
2.496414406250000,SPI,MOSI: 0x100
2.496509718750000,SPI,MOSI: 0x100
2.496604906250000,SPI,MOSI: 0x100
2.496700187500000,SPI,MOSI: 0x100
2.496795437500000,SPI,MOSI: 0x100
2.496890718750000,SPI,MOSI: 0x100
2.496985937500000,SPI,MOSI: 0x100
2.497081218750000,SPI,MOSI: 0x100
2.497176468750000,SPI,MOSI: 0x100
2.497271718750000,SPI,MOSI: 0x100
2.497366968750000,SPI,MOSI: 0x100
2.497462343750000,SPI,MOSI: 0x100
2.497557406250000,SPI,MOSI: 0x100
2.497652750000000,SPI,MOSI: 0x100
2.497748000000000,SPI,MOSI: 0x100
2.497843187500000,SPI,MOSI: 0x100
2.497938500000000,SPI,MOSI: 0x100
2.498033625000000,SPI,MOSI: 0x100
2.498128843750000,SPI,MOSI: 0x100
2.498224156250000,SPI,MOSI: 0x100
2.498319312500000,SPI,MOSI: 0x100
2.498414625000000,SPI,MOSI: 0x100
2.498509812500000,SPI,MOSI: 0x100
2.498605125000000,SPI,MOSI: 0x100
2.498700375000000,SPI,MOSI: 0x100
2.498795687500000,SPI,MOSI: 0x100
2.498890875000000,SPI,MOSI: 0x100
2.498986156250000,SPI,MOSI: 0x100
2.499081375000000,SPI,MOSI: 0x100
2.499176656250000,SPI,MOSI: 0x100
2.499271843750000,SPI,MOSI: 0x100
2.499367250000000,SPI,MOSI: 0x100
2.499462437500000,SPI,MOSI: 0x100
2.499557718750000,SPI,MOSI: 0x100
2.499652968750000,SPI,MOSI: 0x100
2.499748250000000,SPI,MOSI: 0x100
2.499843500000000,SPI,MOSI: 0x100
2.499938843750000,SPI,MOSI: 0x100
2.500034031250000,SPI,MOSI: 0x100
2.500129312500000,SPI,MOSI: 0x100
2.500224531250000,SPI,MOSI: 0x100
2.500319781250000,SPI,MOSI: 0x100
2.500415000000000,SPI,MOSI: 0x100
2.500510281250000,SPI,MOSI: 0x100
2.500605562500000,SPI,MOSI: 0x100
2.500700906250000,SPI,MOSI: 0x100
2.500796000000000,SPI,MOSI: 0x100
2.500891343750000,SPI,MOSI: 0x100
2.500986593750000,SPI,MOSI: 0x100
2.501081875000000,SPI,MOSI: 0x100
2.501177093750000,SPI,MOSI: 0x100
2.501272406250000,SPI,MOSI: 0x100
2.501367625000000,SPI,MOSI: 0x100
2.501462906250000,SPI,MOSI: 0x100
2.501558218750000,SPI,MOSI: 0x100
2.501653406250000,SPI,MOSI: 0x100
2.501748687500000,SPI,MOSI: 0x100
2.501843906250000,SPI,MOSI: 0x100
2.501939156250000,SPI,MOSI: 0x100
2.502034406250000,SPI,MOSI: 0x100
2.502129718750000,SPI,MOSI: 0x100
2.502224937500000,SPI,MOSI: 0x100
2.502320187500000,SPI,MOSI: 0x100
2.502415437500000,SPI,MOSI: 0x100
2.502510718750000,SPI,MOSI: 0x100
2.502605968750000,SPI,MOSI: 0x100
2.502701281250000,SPI,MOSI: 0x100
2.502796531250000,SPI,MOSI: 0x100
2.502891781250000,SPI,MOSI: 0x100
2.502986968750000,SPI,MOSI: 0x100
2.503082281250000,SPI,MOSI: 0x100
2.503177500000000,SPI,MOSI: 0x100
2.503272843750000,SPI,MOSI: 0x100
2.503367875000000,SPI,MOSI: 0x100
2.503463062500000,SPI,MOSI: 0x100
2.503558343750000,SPI,MOSI: 0x100
2.503653593750000,SPI,MOSI: 0x100
2.503748750000000,SPI,MOSI: 0x100
2.503844062500000,SPI,MOSI: 0x100
2.503939250000000,SPI,MOSI: 0x100
2.504034531250000,SPI,MOSI: 0x100
2.504129906250000,SPI,MOSI: 0x100
2.504225000000000,SPI,MOSI: 0x100
2.504320312500000,SPI,MOSI: 0x100
2.504415625000000,SPI,MOSI: 0x100
2.504510812500000,SPI,MOSI: 0x100
2.504606125000000,SPI,MOSI: 0x100
2.504701406250000,SPI,MOSI: 0x100
2.504796656250000,SPI,MOSI: 0x100
2.504891937500000,SPI,MOSI: 0x100
2.504987250000000,SPI,MOSI: 0x100
2.505082437500000,SPI,MOSI: 0x100
2.505177718750000,SPI,MOSI: 0x100
2.505272968750000,SPI,MOSI: 0x100
2.505368250000000,SPI,MOSI: 0x100
2.505463562500000,SPI,MOSI: 0x100
2.505558718750000,SPI,MOSI: 0x100
2.505654031250000,SPI,MOSI: 0x100
2.505749312500000,SPI,MOSI: 0x100
2.505844562500000,SPI,MOSI: 0x100
2.505939875000000,SPI,MOSI: 0x100
2.506035187500000,SPI,MOSI: 0x100
2.506130375000000,SPI,MOSI: 0x100
2.506225656250000,SPI,MOSI: 0x100
2.506320843750000,SPI,MOSI: 0x100
2.506416125000000,SPI,MOSI: 0x100
2.506511406250000,SPI,MOSI: 0x100
2.506606718750000,SPI,MOSI: 0x100
2.506702031250000,SPI,MOSI: 0x100
2.506797281250000,SPI,MOSI: 0x100
2.506892531250000,SPI,MOSI: 0x100
2.506987812500000,SPI,MOSI: 0x100
2.507083125000000,SPI,MOSI: 0x100
2.507178281250000,SPI,MOSI: 0x100
2.507273625000000,SPI,MOSI: 0x100
2.507368875000000,SPI,MOSI: 0x100
2.507464062500000,SPI,MOSI: 0x100
2.507559437500000,SPI,MOSI: 0x100
2.507654656250000,SPI,MOSI: 0x100
2.507749937500000,SPI,MOSI: 0x100
2.507845250000000,SPI,MOSI: 0x100
2.507940437500000,SPI,MOSI: 0x100
2.508035718750000,SPI,MOSI: 0x100
2.508130875000000,SPI,MOSI: 0x100
2.508226125000000,SPI,MOSI: 0x100
2.508321281250000,SPI,MOSI: 0x100
2.508416593750000,SPI,MOSI: 0x100
2.508512000000000,SPI,MOSI: 0x100
2.508607281250000,SPI,MOSI: 0x100
2.508702531250000,SPI,MOSI: 0x100
2.508798000000000,SPI,MOSI: 0x100
2.508893312500000,SPI,MOSI: 0x100
2.508988687500000,SPI,MOSI: 0x100
2.509084031250000,SPI,MOSI: 0x100
2.509179312500000,SPI,MOSI: 0x100
2.509274687500000,SPI,MOSI: 0x100
2.509370062500000,SPI,MOSI: 0x100
2.509465250000000,SPI,MOSI: 0x100
2.509560500000000,SPI,MOSI: 0x100
2.509655656250000,SPI,MOSI: 0x100
2.509750968750000,SPI,MOSI: 0x100
2.509846093750000,SPI,MOSI: 0x100
2.509941468750000,SPI,MOSI: 0x100
2.510036750000000,SPI,MOSI: 0x100
2.510132125000000,SPI,MOSI: 0x100
2.510227281250000,SPI,MOSI: 0x100
2.510322562500000,SPI,MOSI: 0x100
2.510417812500000,SPI,MOSI: 0x100
2.510513062500000,SPI,MOSI: 0x100
2.510608406250000,SPI,MOSI: 0x100
2.510703531250000,SPI,MOSI: 0x100
2.510798812500000,SPI,MOSI: 0x100
2.510894093750000,SPI,MOSI: 0x100
2.510989281250000,SPI,MOSI: 0x100
2.511084593750000,SPI,MOSI: 0x100
2.511179875000000,SPI,MOSI: 0x100
2.511275125000000,SPI,MOSI: 0x100
2.511370406250000,SPI,MOSI: 0x100
2.511465625000000,SPI,MOSI: 0x100
2.511560906250000,SPI,MOSI: 0x100
2.511656062500000,SPI,MOSI: 0x100
2.511751312500000,SPI,MOSI: 0x100
2.511846593750000,SPI,MOSI: 0x100
2.511941906250000,SPI,MOSI: 0x100
2.512037187500000,SPI,MOSI: 0x100
2.512132437500000,SPI,MOSI: 0x100
2.512227750000000,SPI,MOSI: 0x100
2.512323031250000,SPI,MOSI: 0x100
2.512418281250000,SPI,MOSI: 0x100
2.512513562500000,SPI,MOSI: 0x100
2.512608812500000,SPI,MOSI: 0x100
2.512704125000000,SPI,MOSI: 0x100
2.512799375000000,SPI,MOSI: 0x100
2.512894625000000,SPI,MOSI: 0x100
2.512989875000000,SPI,MOSI: 0x100
2.513085187500000,SPI,MOSI: 0x100
2.513180312500000,SPI,MOSI: 0x100
2.513275687500000,SPI,MOSI: 0x100
2.513370843750000,SPI,MOSI: 0x100
2.513466031250000,SPI,MOSI: 0x100
2.513561406250000,SPI,MOSI: 0x100
2.513656562500000,SPI,MOSI: 0x100
2.513751812500000,SPI,MOSI: 0x100
2.513847093750000,SPI,MOSI: 0x100
2.513942406250000,SPI,MOSI: 0x100
2.514037656250000,SPI,MOSI: 0x100
2.514132875000000,SPI,MOSI: 0x100
2.514228125000000,SPI,MOSI: 0x100
2.514323343750000,SPI,MOSI: 0x100
2.514418625000000,SPI,MOSI: 0x100
2.514513968750000,SPI,MOSI: 0x100
2.514609125000000,SPI,MOSI: 0x100
2.514704437500000,SPI,MOSI: 0x100
2.514799750000000,SPI,MOSI: 0x100
2.514895031250000,SPI,MOSI: 0x100
2.514990312500000,SPI,MOSI: 0x100
2.515085718750000,SPI,MOSI: 0x100
2.515181000000000,SPI,MOSI: 0x100
2.515276406250000,SPI,MOSI: 0x100
2.515371718750000,SPI,MOSI: 0x100
2.515467000000000,SPI,MOSI: 0x100
2.515562437500000,SPI,MOSI: 0x100
2.515657531250000,SPI,MOSI: 0x100
2.515752781250000,SPI,MOSI: 0x100
2.515848156250000,SPI,MOSI: 0x100
2.515943218750000,SPI,MOSI: 0x100
2.516038500000000,SPI,MOSI: 0x100
2.516133656250000,SPI,MOSI: 0x100
2.516228937500000,SPI,MOSI: 0x100
2.516324125000000,SPI,MOSI: 0x100
2.516419406250000,SPI,MOSI: 0x100
2.516514625000000,SPI,MOSI: 0x100
2.516609875000000,SPI,MOSI: 0x100
2.516704875000000,SPI,MOSI: 0x100
2.516800062500000,SPI,MOSI: 0x100
2.516895281250000,SPI,MOSI: 0x100
2.516990500000000,SPI,MOSI: 0x100
2.517085781250000,SPI,MOSI: 0x100
2.517181031250000,SPI,MOSI: 0x100
2.517276406250000,SPI,MOSI: 0x100
2.517371500000000,SPI,MOSI: 0x100
2.517466843750000,SPI,MOSI: 0x100
2.517562156250000,SPI,MOSI: 0x100
2.517657343750000,SPI,MOSI: 0x100
2.517752656250000,SPI,MOSI: 0x100
2.517847906250000,SPI,MOSI: 0x100
2.517946843750000,SPI,MOSI: 0x026
2.518043218750000,SPI,MOSI: 0x100
2.518138531250000,SPI,MOSI: 0x100
2.518233750000000,SPI,MOSI: 0x100
2.518329031250000,SPI,MOSI: 0x100
2.518424281250000,SPI,MOSI: 0x100
2.518519562500000,SPI,MOSI: 0x100
2.518614843750000,SPI,MOSI: 0x100
2.518710125000000,SPI,MOSI: 0x100
2.518805500000000,SPI,MOSI: 0x100
2.518900781250000,SPI,MOSI: 0x100
2.518996093750000,SPI,MOSI: 0x100
2.519091468750000,SPI,MOSI: 0x100
2.519186812500000,SPI,MOSI: 0x100
2.519282125000000,SPI,MOSI: 0x100
2.519377437500000,SPI,MOSI: 0x100
2.519472812500000,SPI,MOSI: 0x100
2.519568093750000,SPI,MOSI: 0x100
2.519663312500000,SPI,MOSI: 0x100
2.519758625000000,SPI,MOSI: 0x100
2.519853812500000,SPI,MOSI: 0x100
2.519949187500000,SPI,MOSI: 0x100
2.520044500000000,SPI,MOSI: 0x100
2.520139625000000,SPI,MOSI: 0x100
2.520234937500000,SPI,MOSI: 0x100
2.520330250000000,SPI,MOSI: 0x100
2.520425406250000,SPI,MOSI: 0x100
2.520520687500000,SPI,MOSI: 0x100
2.520615937500000,SPI,MOSI: 0x100
2.520711156250000,SPI,MOSI: 0x100
2.520806437500000,SPI,MOSI: 0x100
2.520901687500000,SPI,MOSI: 0x100
2.520997000000000,SPI,MOSI: 0x100
2.521092281250000,SPI,MOSI: 0x100
2.521187500000000,SPI,MOSI: 0x100
2.521282812500000,SPI,MOSI: 0x100
